
Circuit: Blackbox

Circuit: Blackbox
Date: Fri Dec 12 20:50:24  2014


                                    Blackbox
                                    Transient Analysis  Fri Dec 12 20:50:24  2014
--------------------------------------------------------------------------------
Index   time            sclk_m_0           mosi_m_0           miso_m_0           
--------------------------------------------------------------------------------
0	0.000000e+00	0.000000e+00	0.000000e+00	5.000000e+00	
1	1.000000e-12	0.000000e+00	0.000000e+00	4.999896e+00	
2	2.000000e-12	0.000000e+00	0.000000e+00	4.999863e+00	
3	4.000000e-12	0.000000e+00	0.000000e+00	4.999786e+00	
4	8.000000e-12	0.000000e+00	0.000000e+00	4.999792e+00	
5	1.600000e-11	0.000000e+00	0.000000e+00	4.999851e+00	
6	3.200000e-11	0.000000e+00	0.000000e+00	4.999905e+00	
7	6.400000e-11	0.000000e+00	0.000000e+00	4.999948e+00	
8	1.280000e-10	0.000000e+00	0.000000e+00	4.999970e+00	
9	2.560000e-10	0.000000e+00	0.000000e+00	5.000052e+00	
10	5.120000e-10	0.000000e+00	0.000000e+00	4.999961e+00	
11	1.024000e-09	0.000000e+00	0.000000e+00	5.000043e+00	
12	2.024000e-09	0.000000e+00	0.000000e+00	4.999961e+00	
13	3.024000e-09	0.000000e+00	0.000000e+00	5.000041e+00	
14	4.024000e-09	0.000000e+00	0.000000e+00	4.999962e+00	
15	5.024000e-09	0.000000e+00	0.000000e+00	5.000039e+00	
16	6.024000e-09	0.000000e+00	0.000000e+00	4.999964e+00	
17	7.024000e-09	0.000000e+00	0.000000e+00	5.000036e+00	
18	8.024000e-09	0.000000e+00	0.000000e+00	4.999968e+00	
19	9.024000e-09	0.000000e+00	0.000000e+00	5.000032e+00	
20	9.750000e-09	0.000000e+00	0.000000e+00	4.999973e+00	
21	9.800000e-09	0.000000e+00	0.000000e+00	4.999953e+00	
22	9.900000e-09	0.000000e+00	0.000000e+00	5.025306e+00	
23	1.003087e-08	0.000000e+00	0.000000e+00	5.071451e+00	
24	1.015150e-08	0.000000e+00	0.000000e+00	4.739869e+00	
25	1.016381e-08	0.000000e+00	0.000000e+00	4.654186e+00	
26	1.018844e-08	0.000000e+00	0.000000e+00	4.449586e+00	
27	1.023769e-08	0.000000e+00	0.000000e+00	3.647267e+00	
28	1.025000e-08	0.000000e+00	0.000000e+00	3.277426e+00	
29	1.025456e-08	0.000000e+00	0.000000e+00	3.133387e+00	
30	1.026369e-08	0.000000e+00	0.000000e+00	2.835648e+00	
31	1.028195e-08	0.000000e+00	0.000000e+00	2.195628e+00	
32	1.031846e-08	0.000000e+00	0.000000e+00	9.374447e-01	
33	1.036359e-08	0.000000e+00	0.000000e+00	3.732395e-01	
34	1.041433e-08	0.000000e+00	0.000000e+00	2.823238e-01	
35	1.047519e-08	0.000000e+00	0.000000e+00	1.616762e-01	
36	1.054194e-08	0.000000e+00	0.000000e+00	1.031301e-01	
37	1.060145e-08	0.000000e+00	0.000000e+00	6.054589e-02	
38	1.066667e-08	0.000000e+00	0.000000e+00	3.989757e-02	
39	1.073586e-08	0.000000e+00	0.000000e+00	3.109229e-02	
40	1.081931e-08	0.000000e+00	0.000000e+00	2.568765e-02	
41	1.093281e-08	0.000000e+00	0.000000e+00	1.380067e-02	
42	1.105165e-08	0.000000e+00	0.000000e+00	8.940113e-03	
43	1.117612e-08	0.000000e+00	0.000000e+00	4.365309e-03	
44	1.142506e-08	0.000000e+00	0.000000e+00	1.933668e-03	
45	1.182842e-08	0.000000e+00	0.000000e+00	-2.447035e-04	
46	1.225125e-08	0.000000e+00	0.000000e+00	3.783748e-04	
47	1.287624e-08	0.000000e+00	0.000000e+00	-3.367942e-04	
48	1.387624e-08	0.000000e+00	0.000000e+00	3.348340e-04	
49	1.487624e-08	0.000000e+00	0.000000e+00	-3.236947e-04	
50	1.587624e-08	0.000000e+00	0.000000e+00	3.162994e-04	
51	1.687624e-08	0.000000e+00	0.000000e+00	-3.068390e-04	
52	1.787624e-08	0.000000e+00	0.000000e+00	2.989145e-04	
53	1.887624e-08	0.000000e+00	0.000000e+00	-2.912521e-04	
54	1.987624e-08	0.000000e+00	0.000000e+00	2.834654e-04	

Index   time            sclk_m_0           mosi_m_0           miso_m_0           
--------------------------------------------------------------------------------
55	2.087624e-08	0.000000e+00	0.000000e+00	-2.762103e-04	
56	2.187624e-08	0.000000e+00	0.000000e+00	2.688094e-04	
57	2.287624e-08	0.000000e+00	0.000000e+00	-2.619283e-04	
58	2.387624e-08	0.000000e+00	0.000000e+00	2.549097e-04	
59	2.487624e-08	0.000000e+00	0.000000e+00	-2.483798e-04	
60	2.587624e-08	0.000000e+00	0.000000e+00	2.417235e-04	
61	2.687624e-08	0.000000e+00	0.000000e+00	-2.355303e-04	
62	2.787624e-08	0.000000e+00	0.000000e+00	2.292137e-04	
63	2.887624e-08	0.000000e+00	0.000000e+00	-2.233451e-04	
64	2.987624e-08	0.000000e+00	0.000000e+00	2.173454e-04	
65	3.087624e-08	0.000000e+00	0.000000e+00	-2.117911e-04	
66	3.187624e-08	0.000000e+00	0.000000e+00	2.060904e-04	
67	3.287624e-08	0.000000e+00	0.000000e+00	-2.008242e-04	
68	3.387624e-08	0.000000e+00	0.000000e+00	1.954238e-04	
69	3.487624e-08	0.000000e+00	0.000000e+00	-1.904218e-04	
70	3.587624e-08	0.000000e+00	0.000000e+00	1.853071e-04	
71	3.687624e-08	0.000000e+00	0.000000e+00	-1.805567e-04	
72	3.787624e-08	0.000000e+00	0.000000e+00	1.757124e-04	
73	3.887624e-08	0.000000e+00	0.000000e+00	-1.712014e-04	
74	3.987624e-08	0.000000e+00	0.000000e+00	1.666130e-04	
75	4.087624e-08	0.000000e+00	0.000000e+00	-1.623297e-04	
76	4.187624e-08	0.000000e+00	0.000000e+00	1.579835e-04	
77	4.287624e-08	0.000000e+00	0.000000e+00	-1.539167e-04	
78	4.387624e-08	0.000000e+00	0.000000e+00	1.497998e-04	
79	4.487624e-08	0.000000e+00	0.000000e+00	-1.459390e-04	
80	4.587624e-08	0.000000e+00	0.000000e+00	1.420391e-04	
81	4.687624e-08	0.000000e+00	0.000000e+00	-1.383739e-04	
82	4.787624e-08	0.000000e+00	0.000000e+00	1.346795e-04	
83	4.887624e-08	0.000000e+00	0.000000e+00	-1.312003e-04	
84	4.975000e-08	0.000000e+00	0.000000e+00	1.272281e-04	
85	4.977500e-08	0.000000e+00	0.000000e+00	1.433407e-02	
86	4.978125e-08	0.000000e+00	0.000000e+00	1.613574e-02	
87	4.979375e-08	0.000000e+00	0.000000e+00	1.783421e-02	
88	4.981282e-08	0.000000e+00	0.000000e+00	1.694319e-02	
89	4.981536e-08	0.000000e+00	0.000000e+00	1.675886e-02	
90	4.982045e-08	0.000000e+00	0.000000e+00	1.636752e-02	
91	4.983062e-08	0.000000e+00	0.000000e+00	1.552581e-02	
92	4.985096e-08	0.000000e+00	0.000000e+00	1.386094e-02	
93	4.989166e-08	0.000000e+00	0.000000e+00	1.018861e-02	
94	4.995697e-08	0.000000e+00	0.000000e+00	-1.318552e-02	
95	4.996235e-08	0.000000e+00	0.000000e+00	-1.657584e-02	
96	4.997311e-08	0.000000e+00	0.000000e+00	-2.342302e-02	
97	4.999462e-08	0.000000e+00	0.000000e+00	-3.753951e-02	
98	5.000000e-08	0.000000e+00	0.000000e+00	-4.110609e-02	

                                    Blackbox
                                    Transient Analysis  Fri Dec 12 20:50:24  2014
--------------------------------------------------------------------------------
Index   time            ss_m_0            sclk_m_1           mosi_m_1           
--------------------------------------------------------------------------------
0	0.000000e+00	0.000000e+00	5.000000e+00	5.000000e+00	
1	1.000000e-12	0.000000e+00	5.000000e+00	5.000000e+00	
2	2.000000e-12	0.000000e+00	5.000000e+00	5.000000e+00	
3	4.000000e-12	0.000000e+00	5.000000e+00	5.000000e+00	
4	8.000000e-12	0.000000e+00	5.000000e+00	5.000000e+00	
5	1.600000e-11	0.000000e+00	5.000000e+00	5.000000e+00	
6	3.200000e-11	0.000000e+00	5.000000e+00	5.000000e+00	
7	6.400000e-11	0.000000e+00	5.000000e+00	5.000000e+00	
8	1.280000e-10	0.000000e+00	5.000000e+00	5.000000e+00	
9	2.560000e-10	0.000000e+00	5.000000e+00	5.000000e+00	
10	5.120000e-10	0.000000e+00	5.000000e+00	5.000000e+00	
11	1.024000e-09	0.000000e+00	5.000000e+00	5.000000e+00	
12	2.024000e-09	0.000000e+00	5.000000e+00	5.000000e+00	
13	3.024000e-09	0.000000e+00	5.000000e+00	5.000000e+00	
14	4.024000e-09	0.000000e+00	5.000000e+00	5.000000e+00	
15	5.024000e-09	0.000000e+00	5.000000e+00	5.000000e+00	
16	6.024000e-09	0.000000e+00	5.000000e+00	5.000000e+00	
17	7.024000e-09	0.000000e+00	5.000000e+00	5.000000e+00	
18	8.024000e-09	0.000000e+00	5.000000e+00	5.000000e+00	
19	9.024000e-09	0.000000e+00	5.000000e+00	5.000000e+00	
20	9.750000e-09	0.000000e+00	5.000000e+00	5.000000e+00	
21	9.800000e-09	0.000000e+00	5.000000e+00	5.000000e+00	
22	9.900000e-09	0.000000e+00	5.000000e+00	5.000000e+00	
23	1.003087e-08	0.000000e+00	5.000000e+00	5.000000e+00	
24	1.015150e-08	0.000000e+00	5.000000e+00	5.000000e+00	
25	1.016381e-08	0.000000e+00	5.000000e+00	5.000000e+00	
26	1.018844e-08	0.000000e+00	5.000000e+00	5.000000e+00	
27	1.023769e-08	0.000000e+00	5.000000e+00	5.000000e+00	
28	1.025000e-08	0.000000e+00	5.000000e+00	5.000000e+00	
29	1.025456e-08	0.000000e+00	5.000000e+00	5.000000e+00	
30	1.026369e-08	0.000000e+00	5.000000e+00	5.000000e+00	
31	1.028195e-08	0.000000e+00	5.000000e+00	5.000000e+00	
32	1.031846e-08	0.000000e+00	5.000000e+00	5.000000e+00	
33	1.036359e-08	0.000000e+00	5.000000e+00	5.000000e+00	
34	1.041433e-08	0.000000e+00	5.000000e+00	5.000000e+00	
35	1.047519e-08	0.000000e+00	5.000000e+00	5.000000e+00	
36	1.054194e-08	0.000000e+00	5.000000e+00	5.000000e+00	
37	1.060145e-08	0.000000e+00	5.000000e+00	5.000000e+00	
38	1.066667e-08	0.000000e+00	5.000000e+00	5.000000e+00	
39	1.073586e-08	0.000000e+00	5.000000e+00	5.000000e+00	
40	1.081931e-08	0.000000e+00	5.000000e+00	5.000000e+00	
41	1.093281e-08	0.000000e+00	5.000000e+00	5.000000e+00	
42	1.105165e-08	0.000000e+00	5.000000e+00	5.000000e+00	
43	1.117612e-08	0.000000e+00	5.000000e+00	5.000000e+00	
44	1.142506e-08	0.000000e+00	5.000000e+00	5.000000e+00	
45	1.182842e-08	0.000000e+00	5.000000e+00	5.000000e+00	
46	1.225125e-08	0.000000e+00	5.000000e+00	5.000000e+00	
47	1.287624e-08	0.000000e+00	5.000000e+00	5.000000e+00	
48	1.387624e-08	0.000000e+00	5.000000e+00	5.000000e+00	
49	1.487624e-08	0.000000e+00	5.000000e+00	5.000000e+00	
50	1.587624e-08	0.000000e+00	5.000000e+00	5.000000e+00	
51	1.687624e-08	0.000000e+00	5.000000e+00	5.000000e+00	
52	1.787624e-08	0.000000e+00	5.000000e+00	5.000000e+00	
53	1.887624e-08	0.000000e+00	5.000000e+00	5.000000e+00	
54	1.987624e-08	0.000000e+00	5.000000e+00	5.000000e+00	

Index   time            ss_m_0            sclk_m_1           mosi_m_1           
--------------------------------------------------------------------------------
55	2.087624e-08	0.000000e+00	5.000000e+00	5.000000e+00	
56	2.187624e-08	0.000000e+00	5.000000e+00	5.000000e+00	
57	2.287624e-08	0.000000e+00	5.000000e+00	5.000000e+00	
58	2.387624e-08	0.000000e+00	5.000000e+00	5.000000e+00	
59	2.487624e-08	0.000000e+00	5.000000e+00	5.000000e+00	
60	2.587624e-08	0.000000e+00	5.000000e+00	5.000000e+00	
61	2.687624e-08	0.000000e+00	5.000000e+00	5.000000e+00	
62	2.787624e-08	0.000000e+00	5.000000e+00	5.000000e+00	
63	2.887624e-08	0.000000e+00	5.000000e+00	5.000000e+00	
64	2.987624e-08	0.000000e+00	5.000000e+00	5.000000e+00	
65	3.087624e-08	0.000000e+00	5.000000e+00	5.000000e+00	
66	3.187624e-08	0.000000e+00	5.000000e+00	5.000000e+00	
67	3.287624e-08	0.000000e+00	5.000000e+00	5.000000e+00	
68	3.387624e-08	0.000000e+00	5.000000e+00	5.000000e+00	
69	3.487624e-08	0.000000e+00	5.000000e+00	5.000000e+00	
70	3.587624e-08	0.000000e+00	5.000000e+00	5.000000e+00	
71	3.687624e-08	0.000000e+00	5.000000e+00	5.000000e+00	
72	3.787624e-08	0.000000e+00	5.000000e+00	5.000000e+00	
73	3.887624e-08	0.000000e+00	5.000000e+00	5.000000e+00	
74	3.987624e-08	0.000000e+00	5.000000e+00	5.000000e+00	
75	4.087624e-08	0.000000e+00	5.000000e+00	5.000000e+00	
76	4.187624e-08	0.000000e+00	5.000000e+00	5.000000e+00	
77	4.287624e-08	0.000000e+00	5.000000e+00	5.000000e+00	
78	4.387624e-08	0.000000e+00	5.000000e+00	5.000000e+00	
79	4.487624e-08	0.000000e+00	5.000000e+00	5.000000e+00	
80	4.587624e-08	0.000000e+00	5.000000e+00	5.000000e+00	
81	4.687624e-08	0.000000e+00	5.000000e+00	5.000000e+00	
82	4.787624e-08	0.000000e+00	5.000000e+00	5.000000e+00	
83	4.887624e-08	0.000000e+00	5.000000e+00	5.000000e+00	
84	4.975000e-08	0.000000e+00	5.000000e+00	5.000000e+00	
85	4.977500e-08	0.000000e+00	5.000000e+00	5.000000e+00	
86	4.978125e-08	0.000000e+00	5.000000e+00	5.000000e+00	
87	4.979375e-08	0.000000e+00	5.000000e+00	5.000000e+00	
88	4.981282e-08	0.000000e+00	5.000000e+00	5.000000e+00	
89	4.981536e-08	0.000000e+00	5.000000e+00	5.000000e+00	
90	4.982045e-08	0.000000e+00	5.000000e+00	5.000000e+00	
91	4.983062e-08	0.000000e+00	5.000000e+00	5.000000e+00	
92	4.985096e-08	0.000000e+00	5.000000e+00	5.000000e+00	
93	4.989166e-08	0.000000e+00	5.000000e+00	5.000000e+00	
94	4.995697e-08	0.000000e+00	5.000000e+00	5.000000e+00	
95	4.996235e-08	0.000000e+00	5.000000e+00	5.000000e+00	
96	4.997311e-08	0.000000e+00	5.000000e+00	5.000000e+00	
97	4.999462e-08	0.000000e+00	5.000000e+00	5.000000e+00	
98	5.000000e-08	0.000000e+00	5.000000e+00	5.000000e+00	

                                    Blackbox
                                    Transient Analysis  Fri Dec 12 20:50:24  2014
--------------------------------------------------------------------------------
Index   time            miso_m_1           ss_m_1           
--------------------------------------------------------------------------------
0	0.000000e+00	1.847425e-09	5.000000e+00	
1	1.000000e-12	4.826105e-05	5.000000e+00	
2	2.000000e-12	5.132986e-05	5.000000e+00	
3	4.000000e-12	5.619822e-05	5.000000e+00	
4	8.000000e-12	5.096987e-05	5.000000e+00	
5	1.600000e-11	1.914255e-05	5.000000e+00	
6	3.200000e-11	4.625423e-06	5.000000e+00	
7	6.400000e-11	6.275807e-06	5.000000e+00	
8	1.280000e-10	1.657880e-06	5.000000e+00	
9	2.560000e-10	-2.297291e-06	5.000000e+00	
10	5.120000e-10	-2.424881e-06	5.000000e+00	
11	1.024000e-09	5.102262e-07	5.000000e+00	
12	2.024000e-09	-8.466441e-07	5.000000e+00	
13	3.024000e-09	8.912560e-07	5.000000e+00	
14	4.024000e-09	-8.472340e-07	5.000000e+00	
15	5.024000e-09	7.950720e-07	5.000000e+00	
16	6.024000e-09	-8.072441e-07	5.000000e+00	
17	7.024000e-09	7.505666e-07	5.000000e+00	
18	8.024000e-09	-7.011460e-07	5.000000e+00	
19	9.024000e-09	7.094283e-07	5.000000e+00	
20	9.750000e-09	-5.760754e-07	5.000000e+00	
21	9.800000e-09	-6.553199e-03	5.000000e+00	
22	9.900000e-09	-6.006151e-03	5.000000e+00	
23	1.003087e-08	-1.621482e-02	5.000000e+00	
24	1.015150e-08	-7.556922e-02	5.000000e+00	
25	1.016381e-08	-8.482574e-02	5.000000e+00	
26	1.018844e-08	-9.566933e-02	5.000000e+00	
27	1.023769e-08	-6.530566e-02	5.000000e+00	
28	1.025000e-08	-4.581933e-02	5.000000e+00	
29	1.025456e-08	-3.326748e-02	5.000000e+00	
30	1.026369e-08	-9.000910e-03	5.000000e+00	
31	1.028195e-08	4.214326e-02	5.000000e+00	
32	1.031846e-08	1.994194e-01	5.000000e+00	
33	1.036359e-08	8.380946e-01	5.000000e+00	
34	1.041433e-08	2.870655e+00	5.000000e+00	
35	1.047519e-08	4.368718e+00	5.000000e+00	
36	1.054194e-08	4.806809e+00	5.000000e+00	
37	1.060145e-08	4.900329e+00	5.000000e+00	
38	1.066667e-08	4.947399e+00	5.000000e+00	
39	1.073586e-08	4.974361e+00	5.000000e+00	
40	1.081931e-08	4.988512e+00	5.000000e+00	
41	1.093281e-08	4.995839e+00	5.000000e+00	
42	1.105165e-08	4.998330e+00	5.000000e+00	
43	1.117612e-08	4.999229e+00	5.000000e+00	
44	1.142506e-08	4.999818e+00	5.000000e+00	
45	1.182842e-08	4.999923e+00	5.000000e+00	
46	1.225125e-08	4.999981e+00	5.000000e+00	
47	1.287624e-08	4.999979e+00	5.000000e+00	
48	1.387624e-08	5.000006e+00	5.000000e+00	
49	1.487624e-08	4.999988e+00	5.000000e+00	
50	1.587624e-08	5.000009e+00	5.000000e+00	
51	1.687624e-08	4.999990e+00	5.000000e+00	
52	1.787624e-08	5.000009e+00	5.000000e+00	
53	1.887624e-08	4.999991e+00	5.000000e+00	
54	1.987624e-08	5.000009e+00	5.000000e+00	

Index   time            miso_m_1           ss_m_1           
--------------------------------------------------------------------------------
55	2.087624e-08	4.999991e+00	5.000000e+00	
56	2.187624e-08	5.000009e+00	5.000000e+00	
57	2.287624e-08	4.999991e+00	5.000000e+00	
58	2.387624e-08	5.000008e+00	5.000000e+00	
59	2.487624e-08	4.999992e+00	5.000000e+00	
60	2.587624e-08	5.000008e+00	5.000000e+00	
61	2.687624e-08	4.999992e+00	5.000000e+00	
62	2.787624e-08	5.000008e+00	5.000000e+00	
63	2.887624e-08	4.999992e+00	5.000000e+00	
64	2.987624e-08	5.000008e+00	5.000000e+00	
65	3.087624e-08	4.999992e+00	5.000000e+00	
66	3.187624e-08	5.000008e+00	5.000000e+00	
67	3.287624e-08	4.999992e+00	5.000000e+00	
68	3.387624e-08	5.000007e+00	5.000000e+00	
69	3.487624e-08	4.999993e+00	5.000000e+00	
70	3.587624e-08	5.000007e+00	5.000000e+00	
71	3.687624e-08	4.999993e+00	5.000000e+00	
72	3.787624e-08	5.000007e+00	5.000000e+00	
73	3.887624e-08	4.999993e+00	5.000000e+00	
74	3.987624e-08	5.000007e+00	5.000000e+00	
75	4.087624e-08	4.999993e+00	5.000000e+00	
76	4.187624e-08	5.000006e+00	5.000000e+00	
77	4.287624e-08	4.999994e+00	5.000000e+00	
78	4.387624e-08	5.000006e+00	5.000000e+00	
79	4.487624e-08	4.999994e+00	5.000000e+00	
80	4.587624e-08	5.000006e+00	5.000000e+00	
81	4.687624e-08	4.999994e+00	5.000000e+00	
82	4.787624e-08	5.000006e+00	5.000000e+00	
83	4.887624e-08	4.999994e+00	5.000000e+00	
84	4.975000e-08	5.000006e+00	5.000000e+00	
85	4.977500e-08	5.011050e+00	5.000000e+00	
86	4.978125e-08	5.012589e+00	5.000000e+00	
87	4.979375e-08	5.013966e+00	5.000000e+00	
88	4.981282e-08	5.012077e+00	5.000000e+00	
89	4.981536e-08	5.011625e+00	5.000000e+00	
90	4.982045e-08	5.010767e+00	5.000000e+00	
91	4.983062e-08	5.008624e+00	5.000000e+00	
92	4.985096e-08	5.004389e+00	5.000000e+00	
93	4.989166e-08	4.996077e+00	5.000000e+00	
94	4.995697e-08	4.986434e+00	5.000000e+00	
95	4.996235e-08	4.985826e+00	5.000000e+00	
96	4.997311e-08	4.984525e+00	5.000000e+00	
97	4.999462e-08	4.980190e+00	5.000000e+00	
98	5.000000e-08	4.978649e+00	5.000000e+00	

                                    Blackbox
                                    Transient Analysis  Fri Dec 12 20:50:24  2014
--------------------------------------------------------------------------------
Index   time            sclk_s_0            mosi_s_0           miso_s_0           
--------------------------------------------------------------------------------
0	0.000000e+00	5.000000e+00	5.000000e+00	0.000000e+00	
1	1.000000e-12	4.999896e+00	4.999896e+00	0.000000e+00	
2	2.000000e-12	4.999863e+00	4.999863e+00	0.000000e+00	
3	4.000000e-12	4.999786e+00	4.999786e+00	0.000000e+00	
4	8.000000e-12	4.999792e+00	4.999792e+00	0.000000e+00	
5	1.600000e-11	4.999851e+00	4.999851e+00	0.000000e+00	
6	3.200000e-11	4.999905e+00	4.999905e+00	0.000000e+00	
7	6.400000e-11	4.999948e+00	4.999948e+00	0.000000e+00	
8	1.280000e-10	4.999970e+00	4.999970e+00	0.000000e+00	
9	2.560000e-10	5.000052e+00	5.000052e+00	0.000000e+00	
10	5.120000e-10	4.999961e+00	4.999961e+00	0.000000e+00	
11	1.024000e-09	5.000043e+00	5.000043e+00	0.000000e+00	
12	2.024000e-09	4.999961e+00	4.999961e+00	0.000000e+00	
13	3.024000e-09	5.000041e+00	5.000041e+00	0.000000e+00	
14	4.024000e-09	4.999962e+00	4.999962e+00	0.000000e+00	
15	5.024000e-09	5.000039e+00	5.000039e+00	0.000000e+00	
16	6.024000e-09	4.999964e+00	4.999964e+00	0.000000e+00	
17	7.024000e-09	5.000036e+00	5.000036e+00	0.000000e+00	
18	8.024000e-09	4.999968e+00	4.999968e+00	0.000000e+00	
19	9.024000e-09	5.000032e+00	5.000032e+00	0.000000e+00	
20	9.750000e-09	4.999973e+00	4.999973e+00	0.000000e+00	
21	9.800000e-09	4.999953e+00	4.999953e+00	0.000000e+00	
22	9.900000e-09	5.025306e+00	5.025306e+00	0.000000e+00	
23	1.003087e-08	5.071451e+00	5.071451e+00	0.000000e+00	
24	1.015150e-08	4.739869e+00	4.739869e+00	0.000000e+00	
25	1.016381e-08	4.654186e+00	4.654186e+00	0.000000e+00	
26	1.018844e-08	4.449586e+00	4.449586e+00	0.000000e+00	
27	1.023769e-08	3.647267e+00	3.647267e+00	0.000000e+00	
28	1.025000e-08	3.277426e+00	3.277426e+00	0.000000e+00	
29	1.025456e-08	3.133387e+00	3.133387e+00	0.000000e+00	
30	1.026369e-08	2.835648e+00	2.835648e+00	0.000000e+00	
31	1.028195e-08	2.195628e+00	2.195628e+00	0.000000e+00	
32	1.031846e-08	9.374447e-01	9.374447e-01	0.000000e+00	
33	1.036359e-08	3.732395e-01	3.732395e-01	0.000000e+00	
34	1.041433e-08	2.823238e-01	2.823238e-01	0.000000e+00	
35	1.047519e-08	1.616762e-01	1.616762e-01	0.000000e+00	
36	1.054194e-08	1.031301e-01	1.031301e-01	0.000000e+00	
37	1.060145e-08	6.054589e-02	6.054589e-02	0.000000e+00	
38	1.066667e-08	3.989757e-02	3.989757e-02	0.000000e+00	
39	1.073586e-08	3.109229e-02	3.109229e-02	0.000000e+00	
40	1.081931e-08	2.568765e-02	2.568765e-02	0.000000e+00	
41	1.093281e-08	1.380067e-02	1.380067e-02	0.000000e+00	
42	1.105165e-08	8.940113e-03	8.940113e-03	0.000000e+00	
43	1.117612e-08	4.365309e-03	4.365309e-03	0.000000e+00	
44	1.142506e-08	1.933668e-03	1.933668e-03	0.000000e+00	
45	1.182842e-08	-2.447035e-04	-2.447035e-04	0.000000e+00	
46	1.225125e-08	3.783748e-04	3.783748e-04	0.000000e+00	
